
T0C08 030:753 SEGGER J-Link V4.15n (beta) Log File (0000ms, 30752ms total)
T0C08 030:753 DLL Compiled: Jun 18 2010 19:55:09 (0000ms, 30752ms total)
T0C08 030:753 Logging started @ 2017-04-19 10:33 (0000ms, 30752ms total)
T0C08 030:753 JLINK_SetWarnOutHandler(...) (0000ms, 30752ms total)
T0C08 030:753 JLINK_OpenEx(...)
Firmware: J-Link ARM V8 compiled Dec  1 2009 11:42:48
Hardware: V8.00
S/N: 304439649
Feature(s): RDI,FlashDL,FlashBP,JFlash,GDBFULL  returns O.K. (3034ms, 30752ms total)
T0C08 033:787 JLINK_SetErrorOutHandler(...) (0000ms, 33786ms total)
T0C08 033:787 JLINK_ExecCommand("ProjectFile = "C:\Users\Jackie\Desktop\STM32_Exia\Project\JLinkSettings.ini"", ...)  returns 0x00 (0001ms, 33786ms total)
T0C08 033:791 JLINK_ExecCommand("DisableConnectionTimeout", ...)  returns 0x00 (0000ms, 33787ms total)
T0C08 033:791 JLINK_TIF_Select(JLINKARM_TIF_JTAG)  returns 0x00 (0000ms, 33787ms total)
T0C08 033:791 JLINK_SetSpeed(2000) (0000ms, 33787ms total)
T0C08 033:791 JLINK_GetHardwareVersion()  returns 0x13880 (0000ms, 33787ms total)
T0C08 033:791 JLINK_GetDLLVersion()  returns 41514 (0000ms, 33787ms total)
T0C08 033:791 JLINK_GetFirmwareString(...) (0000ms, 33787ms total)
T0C08 033:796 JLINK_GetDLLVersion()  returns 41514 (0000ms, 33787ms total)
T0C08 033:796 JLINK_GetCompileDateTime() (0000ms, 33787ms total)
T0C08 033:797 JLINK_GetFirmwareString(...) (0000ms, 33787ms total)
T0C08 033:798 JLINK_GetHardwareVersion()  returns 0x13880 (0000ms, 33787ms total)
T0C08 033:803 JLINK_Reset() >0x2F8 JTAG>TotalIRLen = 9, IRPrint = 0x0011 >0x30 JTAG> >0x210 JTAG> >0x118 JTAG> >0xD8 JTAG> >0x198 JTAG> >0x38 JTAG> >0x118 JTAG> >0xD8 JTAG> >0x2F0 JTAG> >0x2F0 JTAG> >0x198 JTAG> >0x198 JTAG>Found Cortex-M3 r1p1, Little endian. >0xD8 JTAG> >0x240 JTAG> >0x198 JTAG> >0x240 JTAG> >0x198 JTAG>TPIU fitted. >0x198 JTAG> >0x198 JTAG>  FPUnit: 6 code (BP) slots and 2 literal slots >0x198 JTAG> >0x250 JTAG> >0x240 JTAG> >0x280 JTAG> >0x198 JTAG> >0x198 JTAG> >0x240 JTAG>
 >0x240 JTAG> >0x198 JTAG> >0x198 JTAG> >0x17A8 JTAG> >0x240 JTAG> >0x198 JTAG> >0x17A8 JTAG> >0x198 JTAG> >0x1F0 JTAG> >0x1F0 JTAG> >0x1F0 JTAG> >0x1F0 JTAG> >0x1F0 JTAG> (0068ms, 33787ms total)
T0C08 033:871 JLINK_GetIdData(...) ScanLen=9 NumDevices=2 aId[0]=0x3BA00477 aIrRead[0]=0 aScanLen[0]=0 aScanRead[0]=0 (0000ms, 33855ms total)
T0C08 033:871 JLINK_JTAG_GetDeviceID(DeviceIndex = 0)  returns 0x3BA00477 (0000ms, 33855ms total)
T0C08 033:872 JLINK_JTAG_GetDeviceInfo(DeviceIndex = 0)  returns 0x00 (0000ms, 33856ms total)
T0C08 033:872 JLINK_JTAG_GetDeviceID(DeviceIndex = 1)  returns 0x16410041 (0000ms, 33856ms total)
T0C08 033:872 JLINK_JTAG_GetDeviceInfo(DeviceIndex = 1)  returns 0x00 (0000ms, 33856ms total)
T0C08 033:872 JLINK_GetDebugInfo(0x100) -- Value=0xE00FF003  returns 0x00 (0000ms, 33856ms total)
T0C08 033:873 JLINK_ReadMem (0xE00FF000, 0x0018 Bytes, ...) >0x320 JTAG> -- Data:  03 F0 F0 FF 03 20 F0 FF 03 30 F0 FF 03 10 F0 FF ...  returns 0x00 (0002ms, 33856ms total)
T0C08 033:875 JLINK_ReadMemU32(0xE000ED00, 0x0001 Items, ...) >0x1F0 JTAG> -- Data:  31 C2 1F 41  returns 0x01 (0001ms, 33858ms total)
T0C08 033:877 JLINK_Halt()  returns 0x00 (0000ms, 33859ms total)
T0C08 033:877 JLINK_IsHalted()  returns TRUE (0000ms, 33859ms total)
T0C08 033:877 JLINK_ReadMemU32(0xE000EDF0, 0x0001 Items, ...) >0x1F0 JTAG> -- Data:  03 00 03 00  returns 0x01 (0002ms, 33859ms total)
T0C08 033:879 JLINK_WriteU32(0xE000EDF0, 0xA05F0003) >0x1F0 JTAG>  returns 0x00 (0001ms, 33861ms total)
T0C08 033:880 JLINK_WriteU32(0xE000EDFC, 0x01000000) >0x1F0 JTAG>  returns 0x00 (0001ms, 33862ms total)
T0C08 033:881 JLINK_ReadMemU32(0xE0002000, 0x0001 Items, ...) >0x1F0 JTAG> -- Data:  60 02 00 00  returns 0x01 (0001ms, 33863ms total)
T0C08 033:882 JLINK_ReadMemU32(0xE0001000, 0x0001 Items, ...) >0x1F0 JTAG> -- Data:  00 00 00 40  returns 0x01 (0001ms, 33864ms total)
T0C08 033:890 JLINK_ExecCommand("Device = STM32F103C8", ...)
                JLINK_ExecCommand("map ram 0x20000000 - 0x20004FFF", ...)  returns 0x00 (0000ms, 0000ms total)
                JLINK_AddMirrorAreaEx(Addr = 0x00000000, Size = 0x00000000) (0000ms, 0000ms total)
                returns 0x00 (0000ms, 33865ms total)
T0C08 033:890 JLINK_GetHWStatus(...)  returns 0x00 (0000ms, 33865ms total)
T0C08 033:894 JLINK_GetNumBPUnits(Type = 0xFFFFFF00) >0x2F8 JTAG>TotalIRLen = 9, IRPrint = 0x0011 >0x30 JTAG> >0x210 JTAG> >0x118 JTAG> >0xD8 JTAG> >0x198 JTAG> >0x38 JTAG> >0x118 JTAG> >0xD8 JTAG> >0x2F0 JTAG> >0x2F0 JTAG> >0x198 JTAG> >0x198 JTAG>Found Cortex-M3 r1p1, Little endian. >0xD8 JTAG> >0x240 JTAG> >0x198 JTAG> >0x198 JTAG>TPIU fitted. >0x198 JTAG> >0x198 JTAG>  FPUnit: 6 code (BP) slots and 2 literal slots >0x198 JTAG>  returns 0x06 (0025ms, 33865ms total)
T0C08 033:919 JLINK_GetNumBPUnits(Type = 0xF0)  returns 0x800 (0000ms, 33890ms total)
T0C08 033:919 JLINK_GetNumWPUnits()  returns 0x04 (0000ms, 33890ms total)
T0C08 033:922 JLINK_GetSpeed()  returns 0x7D0 (0000ms, 33890ms total)
T0C08 033:924 JLINK_ReadMemU32(0xE000E004, 0x0001 Items, ...) >0x200 JTAG> -- Data:  01 00 00 00  returns 0x01 (0002ms, 33890ms total)
T0C08 033:926 JLINK_WriteMem(0xE0001000, 0x001C Bytes, ...) -- Data:  01 00 00 00 00 00 00 00 00 00 00 00 00 00 00 00 ... >0x310 JTAG>  returns 0x1C (0001ms, 33892ms total)
T0C08 033:927 JLINK_ReadMem (0xE0001000, 0x001C Bytes, ...) >0x358 JTAG> -- Data:  01 00 00 40 00 00 00 00 00 00 00 00 00 00 00 00 ...  returns 0x00 (0002ms, 33893ms total)
T0C08 033:929 JLINK_Halt()  returns 0x00 (0000ms, 33895ms total)
T0C08 033:929 JLINK_IsHalted()  returns TRUE (0000ms, 33895ms total)
T0C08 033:937 JLINK_WriteMem(0x20000000, 0x0164 Bytes, ...) -- Data:  00 BE 0A E0 0D 78 2D 06 68 40 08 24 40 00 00 D3 ... >0x1270 JTAG>  returns 0x164 (0005ms, 33895ms total)
T0C08 033:942 JLINK_WriteReg(R0, 0x08000000)  returns 0x00 (0000ms, 33900ms total)
T0C08 033:942 JLINK_WriteReg(R1, 0x007A1200)  returns 0x00 (0000ms, 33900ms total)
T0C08 033:942 JLINK_WriteReg(R2, 0x00000001)  returns 0x00 (0000ms, 33900ms total)
T0C08 033:942 JLINK_WriteReg(R3, 0x00000000)  returns 0x00 (0000ms, 33900ms total)
T0C08 033:942 JLINK_WriteReg(R4, 0x00000000)  returns 0x00 (0000ms, 33900ms total)
T0C08 033:942 JLINK_WriteReg(R5, 0x00000000)  returns 0x00 (0000ms, 33900ms total)
T0C08 033:942 JLINK_WriteReg(R6, 0x00000000)  returns 0x00 (0000ms, 33900ms total)
T0C08 033:942 JLINK_WriteReg(R7, 0x00000000)  returns 0x00 (0000ms, 33900ms total)
T0C08 033:942 JLINK_WriteReg(R8, 0x00000000)  returns 0x00 (0000ms, 33900ms total)
T0C08 033:942 JLINK_WriteReg(R9, 0x20000160)  returns 0x00 (0000ms, 33900ms total)
T0C08 033:942 JLINK_WriteReg(R10, 0x00000000)  returns 0x00 (0000ms, 33900ms total)
T0C08 033:942 JLINK_WriteReg(R11, 0x00000000)  returns 0x00 (0000ms, 33900ms total)
T0C08 033:942 JLINK_WriteReg(R12, 0x00000000)  returns 0x00 (0000ms, 33900ms total)
T0C08 033:942 JLINK_WriteReg(R13, 0x20000800)  returns 0x00 (0000ms, 33900ms total)
T0C08 033:942 JLINK_WriteReg(R14, 0x20000001)  returns 0x00 (0000ms, 33900ms total)
T0C08 033:942 JLINK_WriteReg(R15, 0x20000038)  returns 0x00 (0000ms, 33900ms total)
T0C08 033:942 JLINK_WriteReg(XPSR, 0x01000000)  returns 0x00 (0000ms, 33900ms total)
T0C08 033:942 JLINK_WriteReg(MSP, 0x20000800)  returns 0x00 (0000ms, 33900ms total)
T0C08 033:943 JLINK_WriteReg(PSP, 0x20000800)  returns 0x00 (0000ms, 33900ms total)
T0C08 033:943 JLINK_WriteReg(CFBP, 0x00000000)  returns 0x00 (0000ms, 33900ms total)
T0C08 033:943 JLINK_SetBPEx(Addr = 0x20000000, Type = 0xFFFFFFF2) >0x1F0 JTAG>  returns 0x00000001 (0001ms, 33900ms total)
T0C08 033:944 JLINK_Go() >0x1F0 JTAG> >0x1F0 JTAG> >0x1F0 JTAG> >0x1F0 JTAG> >0x1F0 JTAG> >0x1F0 JTAG> >0x1F0 JTAG> >0x310 JTAG> >0x218 JTAG> >0x218 JTAG> >0x218 JTAG> >0x218 JTAG> >0x218 JTAG> >0x218 JTAG> >0x218 JTAG> >0x218 JTAG> >0x218 JTAG> >0x218 JTAG> >0x218 JTAG> >0x218 JTAG> >0x218 JTAG> >0x218 JTAG> >0x240 JTAG> >0x240 JTAG> (0026ms, 33901ms total)
T0C08 033:970 JLINK_IsHalted() >0x198 JTAG> >0x17A8 JTAG> >0x1F0 JTAG>  returns TRUE (0008ms, 33927ms total)
T0C08 033:978 JLINK_ReadReg(R15)  returns 0x20000000 (0000ms, 33927ms total)
T0C08 033:978 JLINK_ClrBPEx(BPHandle = 0x00000001)  returns 0x00 (0000ms, 33927ms total)
T0C08 033:978 JLINK_ReadReg(R0)  returns 0x00000000 (0000ms, 33927ms total)
T0C08 033:982 JLINK_WriteReg(R0, 0x08000000)  returns 0x00 (0000ms, 33927ms total)
T0C08 033:982 JLINK_WriteReg(R1, 0x00000400)  returns 0x00 (0000ms, 33927ms total)
T0C08 033:982 JLINK_WriteReg(R2, 0x000000FF)  returns 0x00 (0000ms, 33927ms total)
T0C08 033:982 JLINK_WriteReg(R3, 0x00000000)  returns 0x00 (0000ms, 33927ms total)
T0C08 033:982 JLINK_WriteReg(R4, 0x00000000)  returns 0x00 (0000ms, 33927ms total)
T0C08 033:982 JLINK_WriteReg(R5, 0x00000000)  returns 0x00 (0000ms, 33927ms total)
T0C08 033:982 JLINK_WriteReg(R6, 0x00000000)  returns 0x00 (0000ms, 33927ms total)
T0C08 033:982 JLINK_WriteReg(R7, 0x00000000)  returns 0x00 (0000ms, 33927ms total)
T0C08 033:982 JLINK_WriteReg(R8, 0x00000000)  returns 0x00 (0000ms, 33927ms total)
T0C08 033:982 JLINK_WriteReg(R9, 0x20000160)  returns 0x00 (0000ms, 33927ms total)
T0C08 033:982 JLINK_WriteReg(R10, 0x00000000)  returns 0x00 (0000ms, 33927ms total)
T0C08 033:982 JLINK_WriteReg(R11, 0x00000000)  returns 0x00 (0000ms, 33927ms total)
T0C08 033:982 JLINK_WriteReg(R12, 0x00000000)  returns 0x00 (0000ms, 33927ms total)
T0C08 033:982 JLINK_WriteReg(R13, 0x20000800)  returns 0x00 (0000ms, 33927ms total)
T0C08 033:982 JLINK_WriteReg(R14, 0x20000001)  returns 0x00 (0000ms, 33927ms total)
T0C08 033:982 JLINK_WriteReg(R15, 0x20000020)  returns 0x00 (0000ms, 33927ms total)
T0C08 033:982 JLINK_WriteReg(XPSR, 0x01000000)  returns 0x00 (0000ms, 33927ms total)
T0C08 033:982 JLINK_WriteReg(MSP, 0x20000800)  returns 0x00 (0000ms, 33927ms total)
T0C08 033:982 JLINK_WriteReg(PSP, 0x20000800)  returns 0x00 (0000ms, 33927ms total)
T0C08 033:982 JLINK_WriteReg(CFBP, 0x00000000)  returns 0x00 (0000ms, 33927ms total)
T0C08 033:982 JLINK_SetBPEx(Addr = 0x20000000, Type = 0xFFFFFFF2)  returns 0x00000002 (0000ms, 33927ms total)
T0C08 033:982 JLINK_Go() >0x1F0 JTAG> >0x1F0 JTAG> >0x1F0 JTAG> >0x1F0 JTAG> >0x1F0 JTAG> >0x1F0 JTAG> >0x310 JTAG> >0x218 JTAG> >0x218 JTAG> >0x218 JTAG> >0x218 JTAG> >0x218 JTAG> >0x240 JTAG> >0x240 JTAG> (0018ms, 33927ms total)
T0C08 034:000 JLINK_IsHalted() >0x198 JTAG> >0x17A8 JTAG> >0x1F0 JTAG>  returns TRUE (0008ms, 33945ms total)
T0C08 034:008 JLINK_ReadReg(R15)  returns 0x20000000 (0000ms, 33945ms total)
T0C08 034:008 JLINK_ClrBPEx(BPHandle = 0x00000002)  returns 0x00 (0000ms, 33945ms total)
T0C08 034:008 JLINK_ReadReg(R0)  returns 0x00000001 (0000ms, 33945ms total)
T0C08 034:008 JLINK_WriteReg(R0, 0x08000000)  returns 0x00 (0000ms, 33945ms total)
T0C08 034:008 JLINK_WriteReg(R1, 0x00000400)  returns 0x00 (0000ms, 33945ms total)
T0C08 034:008 JLINK_WriteReg(R2, 0x000000FF)  returns 0x00 (0000ms, 33945ms total)
T0C08 034:008 JLINK_WriteReg(R3, 0x00000000)  returns 0x00 (0000ms, 33945ms total)
T0C08 034:008 JLINK_WriteReg(R4, 0x00000000)  returns 0x00 (0000ms, 33945ms total)
T0C08 034:008 JLINK_WriteReg(R5, 0x00000000)  returns 0x00 (0000ms, 33945ms total)
T0C08 034:008 JLINK_WriteReg(R6, 0x00000000)  returns 0x00 (0000ms, 33945ms total)
T0C08 034:008 JLINK_WriteReg(R7, 0x00000000)  returns 0x00 (0000ms, 33945ms total)
T0C08 034:008 JLINK_WriteReg(R8, 0x00000000)  returns 0x00 (0000ms, 33945ms total)
T0C08 034:008 JLINK_WriteReg(R9, 0x20000160)  returns 0x00 (0000ms, 33945ms total)
T0C08 034:008 JLINK_WriteReg(R10, 0x00000000)  returns 0x00 (0000ms, 33945ms total)
T0C08 034:008 JLINK_WriteReg(R11, 0x00000000)  returns 0x00 (0000ms, 33945ms total)
T0C08 034:008 JLINK_WriteReg(R12, 0x00000000)  returns 0x00 (0000ms, 33945ms total)
T0C08 034:008 JLINK_WriteReg(R13, 0x20000800)  returns 0x00 (0000ms, 33945ms total)
T0C08 034:008 JLINK_WriteReg(R14, 0x20000001)  returns 0x00 (0000ms, 33945ms total)
T0C08 034:008 JLINK_WriteReg(R15, 0x200000B6)  returns 0x00 (0000ms, 33945ms total)
T0C08 034:008 JLINK_WriteReg(XPSR, 0x01000000)  returns 0x00 (0000ms, 33945ms total)
T0C08 034:008 JLINK_WriteReg(MSP, 0x20000800)  returns 0x00 (0000ms, 33945ms total)
T0C08 034:008 JLINK_WriteReg(PSP, 0x20000800)  returns 0x00 (0000ms, 33945ms total)
T0C08 034:008 JLINK_WriteReg(CFBP, 0x00000000)  returns 0x00 (0000ms, 33945ms total)
T0C08 034:008 JLINK_SetBPEx(Addr = 0x20000000, Type = 0xFFFFFFF2)  returns 0x00000003 (0000ms, 33945ms total)
T0C08 034:008 JLINK_Go() >0x1F0 JTAG> >0x1F0 JTAG> >0x1F0 JTAG> >0x1F0 JTAG> >0x1F0 JTAG> >0x1F0 JTAG> >0x310 JTAG> >0x218 JTAG> >0x218 JTAG> >0x218 JTAG> >0x240 JTAG> >0x240 JTAG> (0013ms, 33945ms total)
T0C08 034:021 JLINK_IsHalted() >0x198 JTAG>  returns FALSE (0001ms, 33958ms total)
T0C08 034:072 JLINK_IsHalted() >0x198 JTAG> >0x17A8 JTAG> >0x1F0 JTAG>  returns TRUE (0009ms, 33958ms total)
T0C08 034:081 JLINK_ReadReg(R15)  returns 0x20000000 (0000ms, 33958ms total)
T0C08 034:081 JLINK_ClrBPEx(BPHandle = 0x00000003)  returns 0x00 (0000ms, 33958ms total)
T0C08 034:081 JLINK_ReadReg(R0)  returns 0x00000000 (0000ms, 33958ms total)
T0C08 034:082 JLINK_WriteReg(R0, 0x08000400)  returns 0x00 (0000ms, 33958ms total)
T0C08 034:082 JLINK_WriteReg(R1, 0x00000400)  returns 0x00 (0000ms, 33958ms total)
T0C08 034:082 JLINK_WriteReg(R2, 0x000000FF)  returns 0x00 (0000ms, 33958ms total)
T0C08 034:082 JLINK_WriteReg(R3, 0x00000000)  returns 0x00 (0000ms, 33958ms total)
T0C08 034:082 JLINK_WriteReg(R4, 0x00000000)  returns 0x00 (0000ms, 33958ms total)
T0C08 034:082 JLINK_WriteReg(R5, 0x00000000)  returns 0x00 (0000ms, 33958ms total)
T0C08 034:082 JLINK_WriteReg(R6, 0x00000000)  returns 0x00 (0000ms, 33958ms total)
T0C08 034:082 JLINK_WriteReg(R7, 0x00000000)  returns 0x00 (0000ms, 33958ms total)
T0C08 034:082 JLINK_WriteReg(R8, 0x00000000)  returns 0x00 (0000ms, 33958ms total)
T0C08 034:082 JLINK_WriteReg(R9, 0x20000160)  returns 0x00 (0000ms, 33958ms total)
T0C08 034:082 JLINK_WriteReg(R10, 0x00000000)  returns 0x00 (0000ms, 33958ms total)
T0C08 034:082 JLINK_WriteReg(R11, 0x00000000)  returns 0x00 (0000ms, 33958ms total)
T0C08 034:082 JLINK_WriteReg(R12, 0x00000000)  returns 0x00 (0000ms, 33958ms total)
T0C08 034:082 JLINK_WriteReg(R13, 0x20000800)  returns 0x00 (0000ms, 33958ms total)
T0C08 034:082 JLINK_WriteReg(R14, 0x20000001)  returns 0x00 (0000ms, 33958ms total)
T0C08 034:082 JLINK_WriteReg(R15, 0x20000020)  returns 0x00 (0000ms, 33958ms total)
T0C08 034:082 JLINK_WriteReg(XPSR, 0x01000000)  returns 0x00 (0000ms, 33958ms total)
T0C08 034:082 JLINK_WriteReg(MSP, 0x20000800)  returns 0x00 (0000ms, 33958ms total)
T0C08 034:082 JLINK_WriteReg(PSP, 0x20000800)  returns 0x00 (0000ms, 33958ms total)
T0C08 034:082 JLINK_WriteReg(CFBP, 0x00000000)  returns 0x00 (0000ms, 33958ms total)
T0C08 034:082 JLINK_SetBPEx(Addr = 0x20000000, Type = 0xFFFFFFF2)  returns 0x00000004 (0000ms, 33958ms total)
T0C08 034:082 JLINK_Go() >0x1F0 JTAG> >0x1F0 JTAG> >0x1F0 JTAG> >0x1F0 JTAG> >0x1F0 JTAG> >0x1F0 JTAG> >0x310 JTAG> >0x218 JTAG> >0x218 JTAG> >0x218 JTAG> >0x218 JTAG> >0x240 JTAG> >0x240 JTAG> (0016ms, 33958ms total)
T0C08 034:098 JLINK_IsHalted() >0x198 JTAG> >0x17A8 JTAG> >0x1F0 JTAG>  returns TRUE (0008ms, 33974ms total)
T0C08 034:106 JLINK_ReadReg(R15)  returns 0x20000000 (0000ms, 33974ms total)
T0C08 034:106 JLINK_ClrBPEx(BPHandle = 0x00000004)  returns 0x00 (0000ms, 33974ms total)
T0C08 034:106 JLINK_ReadReg(R0)  returns 0x00000001 (0000ms, 33974ms total)
T0C08 034:106 JLINK_WriteReg(R0, 0x08000400)  returns 0x00 (0000ms, 33974ms total)
T0C08 034:106 JLINK_WriteReg(R1, 0x00000400)  returns 0x00 (0000ms, 33974ms total)
T0C08 034:106 JLINK_WriteReg(R2, 0x000000FF)  returns 0x00 (0000ms, 33974ms total)
T0C08 034:106 JLINK_WriteReg(R3, 0x00000000)  returns 0x00 (0000ms, 33974ms total)
T0C08 034:106 JLINK_WriteReg(R4, 0x00000000)  returns 0x00 (0000ms, 33974ms total)
T0C08 034:106 JLINK_WriteReg(R5, 0x00000000)  returns 0x00 (0000ms, 33974ms total)
T0C08 034:106 JLINK_WriteReg(R6, 0x00000000)  returns 0x00 (0000ms, 33974ms total)
T0C08 034:106 JLINK_WriteReg(R7, 0x00000000)  returns 0x00 (0000ms, 33974ms total)
T0C08 034:106 JLINK_WriteReg(R8, 0x00000000)  returns 0x00 (0000ms, 33974ms total)
T0C08 034:106 JLINK_WriteReg(R9, 0x20000160)  returns 0x00 (0000ms, 33974ms total)
T0C08 034:106 JLINK_WriteReg(R10, 0x00000000)  returns 0x00 (0000ms, 33974ms total)
T0C08 034:106 JLINK_WriteReg(R11, 0x00000000)  returns 0x00 (0000ms, 33974ms total)
T0C08 034:106 JLINK_WriteReg(R12, 0x00000000)  returns 0x00 (0000ms, 33974ms total)
T0C08 034:106 JLINK_WriteReg(R13, 0x20000800)  returns 0x00 (0000ms, 33974ms total)
T0C08 034:106 JLINK_WriteReg(R14, 0x20000001)  returns 0x00 (0001ms, 33974ms total)
T0C08 034:107 JLINK_WriteReg(R15, 0x200000B6)  returns 0x00 (0000ms, 33975ms total)
T0C08 034:107 JLINK_WriteReg(XPSR, 0x01000000)  returns 0x00 (0000ms, 33975ms total)
T0C08 034:107 JLINK_WriteReg(MSP, 0x20000800)  returns 0x00 (0000ms, 33975ms total)
T0C08 034:107 JLINK_WriteReg(PSP, 0x20000800)  returns 0x00 (0000ms, 33975ms total)
T0C08 034:107 JLINK_WriteReg(CFBP, 0x00000000)  returns 0x00 (0000ms, 33975ms total)
T0C08 034:107 JLINK_SetBPEx(Addr = 0x20000000, Type = 0xFFFFFFF2)  returns 0x00000005 (0000ms, 33975ms total)
T0C08 034:107 JLINK_Go() >0x1F0 JTAG> >0x1F0 JTAG> >0x1F0 JTAG> >0x1F0 JTAG> >0x1F0 JTAG> >0x1F0 JTAG> >0x310 JTAG> >0x218 JTAG> >0x218 JTAG> >0x218 JTAG> >0x240 JTAG> >0x240 JTAG> (0014ms, 33975ms total)
T0C08 034:121 JLINK_IsHalted() >0x198 JTAG>  returns FALSE (0001ms, 33989ms total)
T0C08 034:172 JLINK_IsHalted() >0x198 JTAG> >0x17A8 JTAG> >0x1F0 JTAG>  returns TRUE (0009ms, 33989ms total)
T0C08 034:181 JLINK_ReadReg(R15)  returns 0x20000000 (0000ms, 33989ms total)
T0C08 034:181 JLINK_ClrBPEx(BPHandle = 0x00000005)  returns 0x00 (0000ms, 33989ms total)
T0C08 034:181 JLINK_ReadReg(R0)  returns 0x00000000 (0000ms, 33989ms total)
T0C08 034:182 JLINK_WriteReg(R0, 0x08000800)  returns 0x00 (0000ms, 33989ms total)
T0C08 034:182 JLINK_WriteReg(R1, 0x00000400)  returns 0x00 (0000ms, 33989ms total)
T0C08 034:182 JLINK_WriteReg(R2, 0x000000FF)  returns 0x00 (0000ms, 33989ms total)
T0C08 034:182 JLINK_WriteReg(R3, 0x00000000)  returns 0x00 (0000ms, 33989ms total)
T0C08 034:182 JLINK_WriteReg(R4, 0x00000000)  returns 0x00 (0000ms, 33989ms total)
T0C08 034:182 JLINK_WriteReg(R5, 0x00000000)  returns 0x00 (0000ms, 33989ms total)
T0C08 034:182 JLINK_WriteReg(R6, 0x00000000)  returns 0x00 (0000ms, 33989ms total)
T0C08 034:182 JLINK_WriteReg(R7, 0x00000000)  returns 0x00 (0000ms, 33989ms total)
T0C08 034:182 JLINK_WriteReg(R8, 0x00000000)  returns 0x00 (0000ms, 33989ms total)
T0C08 034:182 JLINK_WriteReg(R9, 0x20000160)  returns 0x00 (0000ms, 33989ms total)
T0C08 034:182 JLINK_WriteReg(R10, 0x00000000)  returns 0x00 (0000ms, 33989ms total)
T0C08 034:182 JLINK_WriteReg(R11, 0x00000000)  returns 0x00 (0000ms, 33989ms total)
T0C08 034:182 JLINK_WriteReg(R12, 0x00000000)  returns 0x00 (0000ms, 33989ms total)
T0C08 034:182 JLINK_WriteReg(R13, 0x20000800)  returns 0x00 (0000ms, 33989ms total)
T0C08 034:182 JLINK_WriteReg(R14, 0x20000001)  returns 0x00 (0000ms, 33989ms total)
T0C08 034:182 JLINK_WriteReg(R15, 0x20000020)  returns 0x00 (0000ms, 33989ms total)
T0C08 034:182 JLINK_WriteReg(XPSR, 0x01000000)  returns 0x00 (0000ms, 33989ms total)
T0C08 034:182 JLINK_WriteReg(MSP, 0x20000800)  returns 0x00 (0000ms, 33989ms total)
T0C08 034:182 JLINK_WriteReg(PSP, 0x20000800)  returns 0x00 (0000ms, 33989ms total)
T0C08 034:182 JLINK_WriteReg(CFBP, 0x00000000)  returns 0x00 (0000ms, 33989ms total)
T0C08 034:182 JLINK_SetBPEx(Addr = 0x20000000, Type = 0xFFFFFFF2)  returns 0x00000006 (0000ms, 33989ms total)
T0C08 034:182 JLINK_Go() >0x1F0 JTAG> >0x1F0 JTAG> >0x1F0 JTAG> >0x1F0 JTAG> >0x1F0 JTAG> >0x1F0 JTAG> >0x310 JTAG> >0x218 JTAG> >0x218 JTAG> >0x218 JTAG> >0x218 JTAG> >0x240 JTAG> >0x240 JTAG> (0015ms, 33989ms total)
T0C08 034:198 JLINK_IsHalted() >0x198 JTAG> >0x17A8 JTAG> >0x1F0 JTAG>  returns TRUE (0008ms, 34005ms total)
T0C08 034:206 JLINK_ReadReg(R15)  returns 0x20000000 (0000ms, 34005ms total)
T0C08 034:206 JLINK_ClrBPEx(BPHandle = 0x00000006)  returns 0x00 (0000ms, 34005ms total)
T0C08 034:206 JLINK_ReadReg(R0)  returns 0x00000001 (0000ms, 34005ms total)
T0C08 034:206 JLINK_WriteReg(R0, 0x08000800)  returns 0x00 (0000ms, 34005ms total)
T0C08 034:206 JLINK_WriteReg(R1, 0x00000400)  returns 0x00 (0000ms, 34005ms total)
T0C08 034:206 JLINK_WriteReg(R2, 0x000000FF)  returns 0x00 (0000ms, 34005ms total)
T0C08 034:206 JLINK_WriteReg(R3, 0x00000000)  returns 0x00 (0000ms, 34005ms total)
T0C08 034:206 JLINK_WriteReg(R4, 0x00000000)  returns 0x00 (0000ms, 34005ms total)
T0C08 034:206 JLINK_WriteReg(R5, 0x00000000)  returns 0x00 (0000ms, 34005ms total)
T0C08 034:206 JLINK_WriteReg(R6, 0x00000000)  returns 0x00 (0000ms, 34005ms total)
T0C08 034:206 JLINK_WriteReg(R7, 0x00000000)  returns 0x00 (0000ms, 34005ms total)
T0C08 034:206 JLINK_WriteReg(R8, 0x00000000)  returns 0x00 (0000ms, 34005ms total)
T0C08 034:206 JLINK_WriteReg(R9, 0x20000160)  returns 0x00 (0000ms, 34005ms total)
T0C08 034:206 JLINK_WriteReg(R10, 0x00000000)  returns 0x00 (0000ms, 34005ms total)
T0C08 034:206 JLINK_WriteReg(R11, 0x00000000)  returns 0x00 (0000ms, 34005ms total)
T0C08 034:206 JLINK_WriteReg(R12, 0x00000000)  returns 0x00 (0000ms, 34005ms total)
T0C08 034:206 JLINK_WriteReg(R13, 0x20000800)  returns 0x00 (0000ms, 34005ms total)
T0C08 034:206 JLINK_WriteReg(R14, 0x20000001)  returns 0x00 (0000ms, 34005ms total)
T0C08 034:206 JLINK_WriteReg(R15, 0x200000B6)  returns 0x00 (0000ms, 34005ms total)
T0C08 034:206 JLINK_WriteReg(XPSR, 0x01000000)  returns 0x00 (0000ms, 34005ms total)
T0C08 034:206 JLINK_WriteReg(MSP, 0x20000800)  returns 0x00 (0000ms, 34005ms total)
T0C08 034:206 JLINK_WriteReg(PSP, 0x20000800)  returns 0x00 (0000ms, 34005ms total)
T0C08 034:206 JLINK_WriteReg(CFBP, 0x00000000)  returns 0x00 (0000ms, 34005ms total)
T0C08 034:206 JLINK_SetBPEx(Addr = 0x20000000, Type = 0xFFFFFFF2)  returns 0x00000007 (0000ms, 34005ms total)
T0C08 034:206 JLINK_Go() >0x1F0 JTAG> >0x1F0 JTAG> >0x1F0 JTAG> >0x1F0 JTAG> >0x1F0 JTAG> >0x1F0 JTAG> >0x310 JTAG> >0x218 JTAG> >0x218 JTAG> >0x218 JTAG> >0x240 JTAG> >0x240 JTAG> (0014ms, 34005ms total)
T0C08 034:220 JLINK_IsHalted() >0x198 JTAG>  returns FALSE (0001ms, 34019ms total)
T0C08 034:271 JLINK_IsHalted() >0x198 JTAG> >0x17A8 JTAG> >0x1F0 JTAG>  returns TRUE (0009ms, 34019ms total)
T0C08 034:280 JLINK_ReadReg(R15)  returns 0x20000000 (0000ms, 34019ms total)
T0C08 034:280 JLINK_ClrBPEx(BPHandle = 0x00000007)  returns 0x00 (0000ms, 34019ms total)
T0C08 034:280 JLINK_ReadReg(R0)  returns 0x00000000 (0000ms, 34019ms total)
T0C08 034:280 JLINK_WriteReg(R0, 0x08000C00)  returns 0x00 (0000ms, 34019ms total)
T0C08 034:280 JLINK_WriteReg(R1, 0x00000400)  returns 0x00 (0000ms, 34019ms total)
T0C08 034:280 JLINK_WriteReg(R2, 0x000000FF)  returns 0x00 (0000ms, 34019ms total)
T0C08 034:280 JLINK_WriteReg(R3, 0x00000000)  returns 0x00 (0000ms, 34019ms total)
T0C08 034:280 JLINK_WriteReg(R4, 0x00000000)  returns 0x00 (0000ms, 34019ms total)
T0C08 034:280 JLINK_WriteReg(R5, 0x00000000)  returns 0x00 (0000ms, 34019ms total)
T0C08 034:280 JLINK_WriteReg(R6, 0x00000000)  returns 0x00 (0000ms, 34019ms total)
T0C08 034:280 JLINK_WriteReg(R7, 0x00000000)  returns 0x00 (0000ms, 34019ms total)
T0C08 034:280 JLINK_WriteReg(R8, 0x00000000)  returns 0x00 (0000ms, 34019ms total)
T0C08 034:280 JLINK_WriteReg(R9, 0x20000160)  returns 0x00 (0000ms, 34019ms total)
T0C08 034:280 JLINK_WriteReg(R10, 0x00000000)  returns 0x00 (0000ms, 34019ms total)
T0C08 034:280 JLINK_WriteReg(R11, 0x00000000)  returns 0x00 (0000ms, 34019ms total)
T0C08 034:280 JLINK_WriteReg(R12, 0x00000000)  returns 0x00 (0000ms, 34019ms total)
T0C08 034:280 JLINK_WriteReg(R13, 0x20000800)  returns 0x00 (0001ms, 34019ms total)
T0C08 034:281 JLINK_WriteReg(R14, 0x20000001)  returns 0x00 (0000ms, 34020ms total)
T0C08 034:281 JLINK_WriteReg(R15, 0x20000020)  returns 0x00 (0000ms, 34020ms total)
T0C08 034:281 JLINK_WriteReg(XPSR, 0x01000000)  returns 0x00 (0000ms, 34020ms total)
T0C08 034:281 JLINK_WriteReg(MSP, 0x20000800)  returns 0x00 (0000ms, 34020ms total)
T0C08 034:281 JLINK_WriteReg(PSP, 0x20000800)  returns 0x00 (0000ms, 34020ms total)
T0C08 034:281 JLINK_WriteReg(CFBP, 0x00000000)  returns 0x00 (0000ms, 34020ms total)
T0C08 034:281 JLINK_SetBPEx(Addr = 0x20000000, Type = 0xFFFFFFF2)  returns 0x00000008 (0000ms, 34020ms total)
T0C08 034:281 JLINK_Go() >0x1F0 JTAG> >0x1F0 JTAG> >0x1F0 JTAG> >0x1F0 JTAG> >0x1F0 JTAG> >0x1F0 JTAG> >0x310 JTAG> >0x218 JTAG> >0x218 JTAG> >0x218 JTAG> >0x218 JTAG> >0x240 JTAG> >0x240 JTAG> (0015ms, 34020ms total)
T0C08 034:296 JLINK_IsHalted() >0x198 JTAG> >0x17A8 JTAG> >0x1F0 JTAG>  returns TRUE (0008ms, 34035ms total)
T0C08 034:304 JLINK_ReadReg(R15)  returns 0x20000000 (0000ms, 34035ms total)
T0C08 034:304 JLINK_ClrBPEx(BPHandle = 0x00000008)  returns 0x00 (0000ms, 34035ms total)
T0C08 034:304 JLINK_ReadReg(R0)  returns 0x00000001 (0000ms, 34035ms total)
T0C08 034:304 JLINK_WriteReg(R0, 0x08000C00)  returns 0x00 (0000ms, 34035ms total)
T0C08 034:304 JLINK_WriteReg(R1, 0x00000400)  returns 0x00 (0000ms, 34035ms total)
T0C08 034:304 JLINK_WriteReg(R2, 0x000000FF)  returns 0x00 (0000ms, 34035ms total)
T0C08 034:304 JLINK_WriteReg(R3, 0x00000000)  returns 0x00 (0000ms, 34035ms total)
T0C08 034:304 JLINK_WriteReg(R4, 0x00000000)  returns 0x00 (0000ms, 34035ms total)
T0C08 034:304 JLINK_WriteReg(R5, 0x00000000)  returns 0x00 (0000ms, 34035ms total)
T0C08 034:304 JLINK_WriteReg(R6, 0x00000000)  returns 0x00 (0000ms, 34035ms total)
T0C08 034:304 JLINK_WriteReg(R7, 0x00000000)  returns 0x00 (0000ms, 34035ms total)
T0C08 034:304 JLINK_WriteReg(R8, 0x00000000)  returns 0x00 (0000ms, 34035ms total)
T0C08 034:304 JLINK_WriteReg(R9, 0x20000160)  returns 0x00 (0000ms, 34035ms total)
T0C08 034:304 JLINK_WriteReg(R10, 0x00000000)  returns 0x00 (0000ms, 34035ms total)
T0C08 034:304 JLINK_WriteReg(R11, 0x00000000)  returns 0x00 (0000ms, 34035ms total)
T0C08 034:304 JLINK_WriteReg(R12, 0x00000000)  returns 0x00 (0000ms, 34035ms total)
T0C08 034:304 JLINK_WriteReg(R13, 0x20000800)  returns 0x00 (0000ms, 34035ms total)
T0C08 034:304 JLINK_WriteReg(R14, 0x20000001)  returns 0x00 (0000ms, 34035ms total)
T0C08 034:305 JLINK_WriteReg(R15, 0x200000B6)  returns 0x00 (0000ms, 34036ms total)
T0C08 034:305 JLINK_WriteReg(XPSR, 0x01000000)  returns 0x00 (0000ms, 34036ms total)
T0C08 034:305 JLINK_WriteReg(MSP, 0x20000800)  returns 0x00 (0000ms, 34036ms total)
T0C08 034:305 JLINK_WriteReg(PSP, 0x20000800)  returns 0x00 (0000ms, 34036ms total)
T0C08 034:305 JLINK_WriteReg(CFBP, 0x00000000)  returns 0x00 (0000ms, 34036ms total)
T0C08 034:305 JLINK_SetBPEx(Addr = 0x20000000, Type = 0xFFFFFFF2)  returns 0x00000009 (0000ms, 34036ms total)
T0C08 034:305 JLINK_Go() >0x1F0 JTAG> >0x1F0 JTAG> >0x1F0 JTAG> >0x1F0 JTAG> >0x1F0 JTAG> >0x1F0 JTAG> >0x310 JTAG> >0x218 JTAG> >0x218 JTAG> >0x218 JTAG> >0x240 JTAG> >0x240 JTAG> (0014ms, 34036ms total)
T0C08 034:319 JLINK_IsHalted() >0x198 JTAG>  returns FALSE (0001ms, 34050ms total)
T0C08 034:370 JLINK_IsHalted() >0x198 JTAG> >0x17A8 JTAG> >0x1F0 JTAG>  returns TRUE (0009ms, 34050ms total)
T0C08 034:379 JLINK_ReadReg(R15)  returns 0x20000000 (0000ms, 34050ms total)
T0C08 034:379 JLINK_ClrBPEx(BPHandle = 0x00000009)  returns 0x00 (0000ms, 34050ms total)
T0C08 034:379 JLINK_ReadReg(R0)  returns 0x00000000 (0000ms, 34050ms total)
T0C08 034:379 JLINK_WriteReg(R0, 0x08001000)  returns 0x00 (0000ms, 34050ms total)
T0C08 034:379 JLINK_WriteReg(R1, 0x00000400)  returns 0x00 (0000ms, 34050ms total)
T0C08 034:379 JLINK_WriteReg(R2, 0x000000FF)  returns 0x00 (0000ms, 34050ms total)
T0C08 034:379 JLINK_WriteReg(R3, 0x00000000)  returns 0x00 (0000ms, 34050ms total)
T0C08 034:379 JLINK_WriteReg(R4, 0x00000000)  returns 0x00 (0000ms, 34050ms total)
T0C08 034:379 JLINK_WriteReg(R5, 0x00000000)  returns 0x00 (0000ms, 34050ms total)
T0C08 034:379 JLINK_WriteReg(R6, 0x00000000)  returns 0x00 (0000ms, 34050ms total)
T0C08 034:379 JLINK_WriteReg(R7, 0x00000000)  returns 0x00 (0000ms, 34050ms total)
T0C08 034:379 JLINK_WriteReg(R8, 0x00000000)  returns 0x00 (0000ms, 34050ms total)
T0C08 034:379 JLINK_WriteReg(R9, 0x20000160)  returns 0x00 (0001ms, 34050ms total)
T0C08 034:380 JLINK_WriteReg(R10, 0x00000000)  returns 0x00 (0000ms, 34051ms total)
T0C08 034:380 JLINK_WriteReg(R11, 0x00000000)  returns 0x00 (0000ms, 34051ms total)
T0C08 034:380 JLINK_WriteReg(R12, 0x00000000)  returns 0x00 (0000ms, 34051ms total)
T0C08 034:380 JLINK_WriteReg(R13, 0x20000800)  returns 0x00 (0000ms, 34051ms total)
T0C08 034:380 JLINK_WriteReg(R14, 0x20000001)  returns 0x00 (0000ms, 34051ms total)
T0C08 034:380 JLINK_WriteReg(R15, 0x20000020)  returns 0x00 (0000ms, 34051ms total)
T0C08 034:380 JLINK_WriteReg(XPSR, 0x01000000)  returns 0x00 (0000ms, 34051ms total)
T0C08 034:380 JLINK_WriteReg(MSP, 0x20000800)  returns 0x00 (0000ms, 34051ms total)
T0C08 034:380 JLINK_WriteReg(PSP, 0x20000800)  returns 0x00 (0000ms, 34051ms total)
T0C08 034:380 JLINK_WriteReg(CFBP, 0x00000000)  returns 0x00 (0000ms, 34051ms total)
T0C08 034:380 JLINK_SetBPEx(Addr = 0x20000000, Type = 0xFFFFFFF2)  returns 0x0000000A (0000ms, 34051ms total)
T0C08 034:380 JLINK_Go() >0x1F0 JTAG> >0x1F0 JTAG> >0x1F0 JTAG> >0x1F0 JTAG> >0x1F0 JTAG> >0x1F0 JTAG> >0x310 JTAG> >0x218 JTAG> >0x218 JTAG> >0x218 JTAG> >0x218 JTAG> >0x240 JTAG> >0x240 JTAG> (0015ms, 34051ms total)
T0C08 034:395 JLINK_IsHalted() >0x198 JTAG> >0x17A8 JTAG> >0x1F0 JTAG>  returns TRUE (0007ms, 34066ms total)
T0C08 034:402 JLINK_ReadReg(R15)  returns 0x20000000 (0000ms, 34066ms total)
T0C08 034:402 JLINK_ClrBPEx(BPHandle = 0x0000000A)  returns 0x00 (0000ms, 34066ms total)
T0C08 034:402 JLINK_ReadReg(R0)  returns 0x00000001 (0000ms, 34066ms total)
T0C08 034:402 JLINK_WriteReg(R0, 0x08001000)  returns 0x00 (0001ms, 34066ms total)
T0C08 034:403 JLINK_WriteReg(R1, 0x00000400)  returns 0x00 (0000ms, 34067ms total)
T0C08 034:403 JLINK_WriteReg(R2, 0x000000FF)  returns 0x00 (0000ms, 34067ms total)
T0C08 034:403 JLINK_WriteReg(R3, 0x00000000)  returns 0x00 (0000ms, 34067ms total)
T0C08 034:403 JLINK_WriteReg(R4, 0x00000000)  returns 0x00 (0000ms, 34067ms total)
T0C08 034:403 JLINK_WriteReg(R5, 0x00000000)  returns 0x00 (0000ms, 34067ms total)
T0C08 034:403 JLINK_WriteReg(R6, 0x00000000)  returns 0x00 (0000ms, 34067ms total)
T0C08 034:403 JLINK_WriteReg(R7, 0x00000000)  returns 0x00 (0000ms, 34067ms total)
T0C08 034:403 JLINK_WriteReg(R8, 0x00000000)  returns 0x00 (0000ms, 34067ms total)
T0C08 034:403 JLINK_WriteReg(R9, 0x20000160)  returns 0x00 (0000ms, 34067ms total)
T0C08 034:403 JLINK_WriteReg(R10, 0x00000000)  returns 0x00 (0000ms, 34067ms total)
T0C08 034:403 JLINK_WriteReg(R11, 0x00000000)  returns 0x00 (0000ms, 34067ms total)
T0C08 034:403 JLINK_WriteReg(R12, 0x00000000)  returns 0x00 (0000ms, 34067ms total)
T0C08 034:403 JLINK_WriteReg(R13, 0x20000800)  returns 0x00 (0000ms, 34067ms total)
T0C08 034:403 JLINK_WriteReg(R14, 0x20000001)  returns 0x00 (0000ms, 34067ms total)
T0C08 034:403 JLINK_WriteReg(R15, 0x200000B6)  returns 0x00 (0000ms, 34067ms total)
T0C08 034:403 JLINK_WriteReg(XPSR, 0x01000000)  returns 0x00 (0000ms, 34067ms total)
T0C08 034:403 JLINK_WriteReg(MSP, 0x20000800)  returns 0x00 (0000ms, 34067ms total)
T0C08 034:403 JLINK_WriteReg(PSP, 0x20000800)  returns 0x00 (0000ms, 34067ms total)
T0C08 034:403 JLINK_WriteReg(CFBP, 0x00000000)  returns 0x00 (0000ms, 34067ms total)
T0C08 034:403 JLINK_SetBPEx(Addr = 0x20000000, Type = 0xFFFFFFF2)  returns 0x0000000B (0000ms, 34067ms total)
T0C08 034:403 JLINK_Go() >0x1F0 JTAG> >0x1F0 JTAG> >0x1F0 JTAG> >0x1F0 JTAG> >0x1F0 JTAG> >0x1F0 JTAG> >0x310 JTAG> >0x218 JTAG> >0x218 JTAG> >0x218 JTAG> >0x240 JTAG> >0x240 JTAG> (0014ms, 34067ms total)
T0C08 034:417 JLINK_IsHalted() >0x198 JTAG>  returns FALSE (0001ms, 34081ms total)
T0C08 034:468 JLINK_IsHalted() >0x198 JTAG> >0x17A8 JTAG> >0x1F0 JTAG>  returns TRUE (0009ms, 34081ms total)
T0C08 034:477 JLINK_ReadReg(R15)  returns 0x20000000 (0000ms, 34081ms total)
T0C08 034:477 JLINK_ClrBPEx(BPHandle = 0x0000000B)  returns 0x00 (0000ms, 34081ms total)
T0C08 034:477 JLINK_ReadReg(R0)  returns 0x00000000 (0000ms, 34081ms total)
T0C08 034:478 JLINK_WriteReg(R0, 0x08001400)  returns 0x00 (0000ms, 34081ms total)
T0C08 034:478 JLINK_WriteReg(R1, 0x00000400)  returns 0x00 (0000ms, 34081ms total)
T0C08 034:478 JLINK_WriteReg(R2, 0x000000FF)  returns 0x00 (0000ms, 34081ms total)
T0C08 034:478 JLINK_WriteReg(R3, 0x00000000)  returns 0x00 (0000ms, 34081ms total)
T0C08 034:478 JLINK_WriteReg(R4, 0x00000000)  returns 0x00 (0000ms, 34081ms total)
T0C08 034:478 JLINK_WriteReg(R5, 0x00000000)  returns 0x00 (0000ms, 34081ms total)
T0C08 034:478 JLINK_WriteReg(R6, 0x00000000)  returns 0x00 (0000ms, 34081ms total)
T0C08 034:478 JLINK_WriteReg(R7, 0x00000000)  returns 0x00 (0000ms, 34081ms total)
T0C08 034:478 JLINK_WriteReg(R8, 0x00000000)  returns 0x00 (0000ms, 34081ms total)
T0C08 034:478 JLINK_WriteReg(R9, 0x20000160)  returns 0x00 (0000ms, 34081ms total)
T0C08 034:478 JLINK_WriteReg(R10, 0x00000000)  returns 0x00 (0000ms, 34081ms total)
T0C08 034:478 JLINK_WriteReg(R11, 0x00000000)  returns 0x00 (0000ms, 34081ms total)
T0C08 034:478 JLINK_WriteReg(R12, 0x00000000)  returns 0x00 (0000ms, 34081ms total)
T0C08 034:478 JLINK_WriteReg(R13, 0x20000800)  returns 0x00 (0000ms, 34081ms total)
T0C08 034:478 JLINK_WriteReg(R14, 0x20000001)  returns 0x00 (0000ms, 34081ms total)
T0C08 034:478 JLINK_WriteReg(R15, 0x20000020)  returns 0x00 (0000ms, 34081ms total)
T0C08 034:478 JLINK_WriteReg(XPSR, 0x01000000)  returns 0x00 (0000ms, 34081ms total)
T0C08 034:478 JLINK_WriteReg(MSP, 0x20000800)  returns 0x00 (0000ms, 34081ms total)
T0C08 034:478 JLINK_WriteReg(PSP, 0x20000800)  returns 0x00 (0000ms, 34081ms total)
T0C08 034:478 JLINK_WriteReg(CFBP, 0x00000000)  returns 0x00 (0000ms, 34081ms total)
T0C08 034:478 JLINK_SetBPEx(Addr = 0x20000000, Type = 0xFFFFFFF2)  returns 0x0000000C (0000ms, 34081ms total)
T0C08 034:478 JLINK_Go() >0x1F0 JTAG> >0x1F0 JTAG> >0x1F0 JTAG> >0x1F0 JTAG> >0x1F0 JTAG> >0x1F0 JTAG> >0x310 JTAG> >0x218 JTAG> >0x218 JTAG> >0x218 JTAG> >0x218 JTAG> >0x240 JTAG> >0x240 JTAG> (0016ms, 34081ms total)
T0C08 034:494 JLINK_IsHalted() >0x198 JTAG> >0x17A8 JTAG> >0x1F0 JTAG>  returns TRUE (0008ms, 34097ms total)
T0C08 034:502 JLINK_ReadReg(R15)  returns 0x20000000 (0000ms, 34097ms total)
T0C08 034:502 JLINK_ClrBPEx(BPHandle = 0x0000000C)  returns 0x00 (0000ms, 34097ms total)
T0C08 034:502 JLINK_ReadReg(R0)  returns 0x00000001 (0000ms, 34097ms total)
T0C08 034:502 JLINK_WriteReg(R0, 0x08001400)  returns 0x00 (0000ms, 34097ms total)
T0C08 034:502 JLINK_WriteReg(R1, 0x00000400)  returns 0x00 (0000ms, 34097ms total)
T0C08 034:502 JLINK_WriteReg(R2, 0x000000FF)  returns 0x00 (0000ms, 34097ms total)
T0C08 034:502 JLINK_WriteReg(R3, 0x00000000)  returns 0x00 (0000ms, 34097ms total)
T0C08 034:502 JLINK_WriteReg(R4, 0x00000000)  returns 0x00 (0000ms, 34097ms total)
T0C08 034:502 JLINK_WriteReg(R5, 0x00000000)  returns 0x00 (0000ms, 34097ms total)
T0C08 034:502 JLINK_WriteReg(R6, 0x00000000)  returns 0x00 (0000ms, 34097ms total)
T0C08 034:502 JLINK_WriteReg(R7, 0x00000000)  returns 0x00 (0000ms, 34097ms total)
T0C08 034:502 JLINK_WriteReg(R8, 0x00000000)  returns 0x00 (0000ms, 34097ms total)
T0C08 034:502 JLINK_WriteReg(R9, 0x20000160)  returns 0x00 (0000ms, 34097ms total)
T0C08 034:502 JLINK_WriteReg(R10, 0x00000000)  returns 0x00 (0000ms, 34097ms total)
T0C08 034:502 JLINK_WriteReg(R11, 0x00000000)  returns 0x00 (0000ms, 34097ms total)
T0C08 034:502 JLINK_WriteReg(R12, 0x00000000)  returns 0x00 (0000ms, 34097ms total)
T0C08 034:502 JLINK_WriteReg(R13, 0x20000800)  returns 0x00 (0000ms, 34097ms total)
T0C08 034:502 JLINK_WriteReg(R14, 0x20000001)  returns 0x00 (0000ms, 34097ms total)
T0C08 034:502 JLINK_WriteReg(R15, 0x200000B6)  returns 0x00 (0001ms, 34097ms total)
T0C08 034:503 JLINK_WriteReg(XPSR, 0x01000000)  returns 0x00 (0000ms, 34098ms total)
T0C08 034:503 JLINK_WriteReg(MSP, 0x20000800)  returns 0x00 (0000ms, 34098ms total)
T0C08 034:503 JLINK_WriteReg(PSP, 0x20000800)  returns 0x00 (0000ms, 34098ms total)
T0C08 034:503 JLINK_WriteReg(CFBP, 0x00000000)  returns 0x00 (0000ms, 34098ms total)
T0C08 034:503 JLINK_SetBPEx(Addr = 0x20000000, Type = 0xFFFFFFF2)  returns 0x0000000D (0000ms, 34098ms total)
T0C08 034:503 JLINK_Go() >0x1F0 JTAG> >0x1F0 JTAG> >0x1F0 JTAG> >0x1F0 JTAG> >0x1F0 JTAG> >0x1F0 JTAG> >0x310 JTAG> >0x218 JTAG> >0x218 JTAG> >0x218 JTAG> >0x240 JTAG> >0x240 JTAG> (0014ms, 34098ms total)
T0C08 034:517 JLINK_IsHalted() >0x198 JTAG>  returns FALSE (0001ms, 34112ms total)
T0C08 034:568 JLINK_IsHalted() >0x198 JTAG> >0x17A8 JTAG> >0x1F0 JTAG>  returns TRUE (0009ms, 34112ms total)
T0C08 034:577 JLINK_ReadReg(R15)  returns 0x20000000 (0000ms, 34112ms total)
T0C08 034:577 JLINK_ClrBPEx(BPHandle = 0x0000000D)  returns 0x00 (0000ms, 34112ms total)
T0C08 034:577 JLINK_ReadReg(R0)  returns 0x00000000 (0000ms, 34112ms total)
T0C08 034:577 JLINK_WriteReg(R0, 0x08001800)  returns 0x00 (0000ms, 34112ms total)
T0C08 034:577 JLINK_WriteReg(R1, 0x00000400)  returns 0x00 (0000ms, 34112ms total)
T0C08 034:577 JLINK_WriteReg(R2, 0x000000FF)  returns 0x00 (0000ms, 34112ms total)
T0C08 034:577 JLINK_WriteReg(R3, 0x00000000)  returns 0x00 (0000ms, 34112ms total)
T0C08 034:577 JLINK_WriteReg(R4, 0x00000000)  returns 0x00 (0000ms, 34112ms total)
T0C08 034:577 JLINK_WriteReg(R5, 0x00000000)  returns 0x00 (0000ms, 34112ms total)
T0C08 034:577 JLINK_WriteReg(R6, 0x00000000)  returns 0x00 (0000ms, 34112ms total)
T0C08 034:577 JLINK_WriteReg(R7, 0x00000000)  returns 0x00 (0000ms, 34112ms total)
T0C08 034:577 JLINK_WriteReg(R8, 0x00000000)  returns 0x00 (0000ms, 34112ms total)
T0C08 034:578 JLINK_WriteReg(R9, 0x20000160)  returns 0x00 (0000ms, 34113ms total)
T0C08 034:578 JLINK_WriteReg(R10, 0x00000000)  returns 0x00 (0000ms, 34113ms total)
T0C08 034:578 JLINK_WriteReg(R11, 0x00000000)  returns 0x00 (0000ms, 34113ms total)
T0C08 034:578 JLINK_WriteReg(R12, 0x00000000)  returns 0x00 (0000ms, 34113ms total)
T0C08 034:578 JLINK_WriteReg(R13, 0x20000800)  returns 0x00 (0000ms, 34113ms total)
T0C08 034:578 JLINK_WriteReg(R14, 0x20000001)  returns 0x00 (0000ms, 34113ms total)
T0C08 034:578 JLINK_WriteReg(R15, 0x20000020)  returns 0x00 (0000ms, 34113ms total)
T0C08 034:578 JLINK_WriteReg(XPSR, 0x01000000)  returns 0x00 (0000ms, 34113ms total)
T0C08 034:578 JLINK_WriteReg(MSP, 0x20000800)  returns 0x00 (0000ms, 34113ms total)
T0C08 034:578 JLINK_WriteReg(PSP, 0x20000800)  returns 0x00 (0000ms, 34113ms total)
T0C08 034:578 JLINK_WriteReg(CFBP, 0x00000000)  returns 0x00 (0000ms, 34113ms total)
T0C08 034:578 JLINK_SetBPEx(Addr = 0x20000000, Type = 0xFFFFFFF2)  returns 0x0000000E (0000ms, 34113ms total)
T0C08 034:578 JLINK_Go() >0x1F0 JTAG> >0x1F0 JTAG> >0x1F0 JTAG> >0x1F0 JTAG> >0x1F0 JTAG> >0x1F0 JTAG> >0x310 JTAG> >0x218 JTAG> >0x218 JTAG> >0x218 JTAG> >0x218 JTAG> >0x240 JTAG> >0x240 JTAG> (0015ms, 34113ms total)
T0C08 034:593 JLINK_IsHalted() >0x198 JTAG> >0x17A8 JTAG> >0x1F0 JTAG>  returns TRUE (0008ms, 34128ms total)
T0C08 034:601 JLINK_ReadReg(R15)  returns 0x20000000 (0000ms, 34128ms total)
T0C08 034:601 JLINK_ClrBPEx(BPHandle = 0x0000000E)  returns 0x00 (0000ms, 34128ms total)
T0C08 034:601 JLINK_ReadReg(R0)  returns 0x00000001 (0000ms, 34128ms total)
T0C08 034:601 JLINK_WriteReg(R0, 0x08001800)  returns 0x00 (0000ms, 34128ms total)
T0C08 034:601 JLINK_WriteReg(R1, 0x00000400)  returns 0x00 (0000ms, 34128ms total)
T0C08 034:601 JLINK_WriteReg(R2, 0x000000FF)  returns 0x00 (0000ms, 34128ms total)
T0C08 034:601 JLINK_WriteReg(R3, 0x00000000)  returns 0x00 (0000ms, 34128ms total)
T0C08 034:601 JLINK_WriteReg(R4, 0x00000000)  returns 0x00 (0000ms, 34128ms total)
T0C08 034:601 JLINK_WriteReg(R5, 0x00000000)  returns 0x00 (0000ms, 34128ms total)
T0C08 034:601 JLINK_WriteReg(R6, 0x00000000)  returns 0x00 (0000ms, 34128ms total)
T0C08 034:601 JLINK_WriteReg(R7, 0x00000000)  returns 0x00 (0000ms, 34128ms total)
T0C08 034:601 JLINK_WriteReg(R8, 0x00000000)  returns 0x00 (0000ms, 34128ms total)
T0C08 034:601 JLINK_WriteReg(R9, 0x20000160)  returns 0x00 (0001ms, 34128ms total)
T0C08 034:602 JLINK_WriteReg(R10, 0x00000000)  returns 0x00 (0000ms, 34129ms total)
T0C08 034:602 JLINK_WriteReg(R11, 0x00000000)  returns 0x00 (0000ms, 34129ms total)
T0C08 034:602 JLINK_WriteReg(R12, 0x00000000)  returns 0x00 (0000ms, 34129ms total)
T0C08 034:602 JLINK_WriteReg(R13, 0x20000800)  returns 0x00 (0000ms, 34129ms total)
T0C08 034:602 JLINK_WriteReg(R14, 0x20000001)  returns 0x00 (0000ms, 34129ms total)
T0C08 034:602 JLINK_WriteReg(R15, 0x200000B6)  returns 0x00 (0000ms, 34129ms total)
T0C08 034:602 JLINK_WriteReg(XPSR, 0x01000000)  returns 0x00 (0000ms, 34129ms total)
T0C08 034:602 JLINK_WriteReg(MSP, 0x20000800)  returns 0x00 (0000ms, 34129ms total)
T0C08 034:602 JLINK_WriteReg(PSP, 0x20000800)  returns 0x00 (0000ms, 34129ms total)
T0C08 034:602 JLINK_WriteReg(CFBP, 0x00000000)  returns 0x00 (0000ms, 34129ms total)
T0C08 034:602 JLINK_SetBPEx(Addr = 0x20000000, Type = 0xFFFFFFF2)  returns 0x0000000F (0000ms, 34129ms total)
T0C08 034:602 JLINK_Go() >0x1F0 JTAG> >0x1F0 JTAG> >0x1F0 JTAG> >0x1F0 JTAG> >0x1F0 JTAG> >0x1F0 JTAG> >0x310 JTAG> >0x218 JTAG> >0x218 JTAG> >0x218 JTAG> >0x240 JTAG> >0x240 JTAG> (0013ms, 34129ms total)
T0C08 034:615 JLINK_IsHalted() >0x198 JTAG>  returns FALSE (0001ms, 34142ms total)
T0C08 034:666 JLINK_IsHalted() >0x198 JTAG> >0x17A8 JTAG> >0x1F0 JTAG>  returns TRUE (0009ms, 34142ms total)
T0C08 034:675 JLINK_ReadReg(R15)  returns 0x20000000 (0000ms, 34142ms total)
T0C08 034:675 JLINK_ClrBPEx(BPHandle = 0x0000000F)  returns 0x00 (0000ms, 34142ms total)
T0C08 034:675 JLINK_ReadReg(R0)  returns 0x00000000 (0000ms, 34142ms total)
T0C08 034:675 JLINK_WriteReg(R0, 0x08001C00)  returns 0x00 (0000ms, 34142ms total)
T0C08 034:675 JLINK_WriteReg(R1, 0x00000400)  returns 0x00 (0000ms, 34142ms total)
T0C08 034:675 JLINK_WriteReg(R2, 0x000000FF)  returns 0x00 (0000ms, 34142ms total)
T0C08 034:675 JLINK_WriteReg(R3, 0x00000000)  returns 0x00 (0000ms, 34142ms total)
T0C08 034:675 JLINK_WriteReg(R4, 0x00000000)  returns 0x00 (0000ms, 34142ms total)
T0C08 034:675 JLINK_WriteReg(R5, 0x00000000)  returns 0x00 (0000ms, 34142ms total)
T0C08 034:675 JLINK_WriteReg(R6, 0x00000000)  returns 0x00 (0001ms, 34142ms total)
T0C08 034:676 JLINK_WriteReg(R7, 0x00000000)  returns 0x00 (0000ms, 34143ms total)
T0C08 034:676 JLINK_WriteReg(R8, 0x00000000)  returns 0x00 (0000ms, 34143ms total)
T0C08 034:676 JLINK_WriteReg(R9, 0x20000160)  returns 0x00 (0000ms, 34143ms total)
T0C08 034:676 JLINK_WriteReg(R10, 0x00000000)  returns 0x00 (0000ms, 34143ms total)
T0C08 034:676 JLINK_WriteReg(R11, 0x00000000)  returns 0x00 (0000ms, 34143ms total)
T0C08 034:676 JLINK_WriteReg(R12, 0x00000000)  returns 0x00 (0000ms, 34143ms total)
T0C08 034:676 JLINK_WriteReg(R13, 0x20000800)  returns 0x00 (0000ms, 34143ms total)
T0C08 034:676 JLINK_WriteReg(R14, 0x20000001)  returns 0x00 (0000ms, 34143ms total)
T0C08 034:676 JLINK_WriteReg(R15, 0x20000020)  returns 0x00 (0000ms, 34143ms total)
T0C08 034:676 JLINK_WriteReg(XPSR, 0x01000000)  returns 0x00 (0000ms, 34143ms total)
T0C08 034:676 JLINK_WriteReg(MSP, 0x20000800)  returns 0x00 (0000ms, 34143ms total)
T0C08 034:676 JLINK_WriteReg(PSP, 0x20000800)  returns 0x00 (0000ms, 34143ms total)
T0C08 034:676 JLINK_WriteReg(CFBP, 0x00000000)  returns 0x00 (0000ms, 34143ms total)
T0C08 034:676 JLINK_SetBPEx(Addr = 0x20000000, Type = 0xFFFFFFF2)  returns 0x00000010 (0000ms, 34143ms total)
T0C08 034:676 JLINK_Go() >0x1F0 JTAG> >0x1F0 JTAG> >0x1F0 JTAG> >0x1F0 JTAG> >0x1F0 JTAG> >0x1F0 JTAG> >0x310 JTAG> >0x218 JTAG> >0x218 JTAG> >0x218 JTAG> >0x218 JTAG> >0x240 JTAG> >0x240 JTAG> (0015ms, 34143ms total)
T0C08 034:691 JLINK_IsHalted() >0x198 JTAG> >0x17A8 JTAG> >0x1F0 JTAG>  returns TRUE (0008ms, 34158ms total)
T0C08 034:699 JLINK_ReadReg(R15)  returns 0x20000000 (0000ms, 34158ms total)
T0C08 034:699 JLINK_ClrBPEx(BPHandle = 0x00000010)  returns 0x00 (0000ms, 34158ms total)
T0C08 034:699 JLINK_ReadReg(R0)  returns 0x00000001 (0000ms, 34158ms total)
T0C08 034:699 JLINK_WriteReg(R0, 0x08001C00)  returns 0x00 (0000ms, 34158ms total)
T0C08 034:699 JLINK_WriteReg(R1, 0x00000400)  returns 0x00 (0000ms, 34158ms total)
T0C08 034:699 JLINK_WriteReg(R2, 0x000000FF)  returns 0x00 (0001ms, 34158ms total)
T0C08 034:700 JLINK_WriteReg(R3, 0x00000000)  returns 0x00 (0000ms, 34159ms total)
T0C08 034:700 JLINK_WriteReg(R4, 0x00000000)  returns 0x00 (0000ms, 34159ms total)
T0C08 034:700 JLINK_WriteReg(R5, 0x00000000)  returns 0x00 (0000ms, 34159ms total)
T0C08 034:700 JLINK_WriteReg(R6, 0x00000000)  returns 0x00 (0000ms, 34159ms total)
T0C08 034:700 JLINK_WriteReg(R7, 0x00000000)  returns 0x00 (0000ms, 34159ms total)
T0C08 034:700 JLINK_WriteReg(R8, 0x00000000)  returns 0x00 (0000ms, 34159ms total)
T0C08 034:700 JLINK_WriteReg(R9, 0x20000160)  returns 0x00 (0000ms, 34159ms total)
T0C08 034:700 JLINK_WriteReg(R10, 0x00000000)  returns 0x00 (0000ms, 34159ms total)
T0C08 034:700 JLINK_WriteReg(R11, 0x00000000)  returns 0x00 (0000ms, 34159ms total)
T0C08 034:700 JLINK_WriteReg(R12, 0x00000000)  returns 0x00 (0000ms, 34159ms total)
T0C08 034:700 JLINK_WriteReg(R13, 0x20000800)  returns 0x00 (0000ms, 34159ms total)
T0C08 034:700 JLINK_WriteReg(R14, 0x20000001)  returns 0x00 (0000ms, 34159ms total)
T0C08 034:700 JLINK_WriteReg(R15, 0x200000B6)  returns 0x00 (0000ms, 34159ms total)
T0C08 034:700 JLINK_WriteReg(XPSR, 0x01000000)  returns 0x00 (0000ms, 34159ms total)
T0C08 034:700 JLINK_WriteReg(MSP, 0x20000800)  returns 0x00 (0000ms, 34159ms total)
T0C08 034:700 JLINK_WriteReg(PSP, 0x20000800)  returns 0x00 (0000ms, 34159ms total)
T0C08 034:700 JLINK_WriteReg(CFBP, 0x00000000)  returns 0x00 (0000ms, 34159ms total)
T0C08 034:700 JLINK_SetBPEx(Addr = 0x20000000, Type = 0xFFFFFFF2)  returns 0x00000011 (0000ms, 34159ms total)
T0C08 034:700 JLINK_Go() >0x1F0 JTAG> >0x1F0 JTAG> >0x1F0 JTAG> >0x1F0 JTAG> >0x1F0 JTAG> >0x1F0 JTAG> >0x310 JTAG> >0x218 JTAG> >0x218 JTAG> >0x218 JTAG> >0x240 JTAG> >0x240 JTAG> (0014ms, 34159ms total)
T0C08 034:714 JLINK_IsHalted() >0x198 JTAG>  returns FALSE (0001ms, 34173ms total)
T0C08 034:765 JLINK_IsHalted() >0x198 JTAG> >0x17A8 JTAG> >0x1F0 JTAG>  returns TRUE (0008ms, 34173ms total)
T0C08 034:773 JLINK_ReadReg(R15)  returns 0x20000000 (0000ms, 34173ms total)
T0C08 034:773 JLINK_ClrBPEx(BPHandle = 0x00000011)  returns 0x00 (0000ms, 34173ms total)
T0C08 034:773 JLINK_ReadReg(R0)  returns 0x00000000 (0000ms, 34173ms total)
T0C08 034:773 JLINK_WriteReg(R0, 0x08002000)  returns 0x00 (0000ms, 34173ms total)
T0C08 034:773 JLINK_WriteReg(R1, 0x00000400)  returns 0x00 (0001ms, 34173ms total)
T0C08 034:774 JLINK_WriteReg(R2, 0x000000FF)  returns 0x00 (0000ms, 34174ms total)
T0C08 034:774 JLINK_WriteReg(R3, 0x00000000)  returns 0x00 (0000ms, 34174ms total)
T0C08 034:774 JLINK_WriteReg(R4, 0x00000000)  returns 0x00 (0000ms, 34174ms total)
T0C08 034:774 JLINK_WriteReg(R5, 0x00000000)  returns 0x00 (0000ms, 34174ms total)
T0C08 034:774 JLINK_WriteReg(R6, 0x00000000)  returns 0x00 (0000ms, 34174ms total)
T0C08 034:774 JLINK_WriteReg(R7, 0x00000000)  returns 0x00 (0000ms, 34174ms total)
T0C08 034:774 JLINK_WriteReg(R8, 0x00000000)  returns 0x00 (0000ms, 34174ms total)
T0C08 034:774 JLINK_WriteReg(R9, 0x20000160)  returns 0x00 (0000ms, 34174ms total)
T0C08 034:774 JLINK_WriteReg(R10, 0x00000000)  returns 0x00 (0000ms, 34174ms total)
T0C08 034:774 JLINK_WriteReg(R11, 0x00000000)  returns 0x00 (0000ms, 34174ms total)
T0C08 034:774 JLINK_WriteReg(R12, 0x00000000)  returns 0x00 (0000ms, 34174ms total)
T0C08 034:774 JLINK_WriteReg(R13, 0x20000800)  returns 0x00 (0000ms, 34174ms total)
T0C08 034:774 JLINK_WriteReg(R14, 0x20000001)  returns 0x00 (0000ms, 34174ms total)
T0C08 034:774 JLINK_WriteReg(R15, 0x20000020)  returns 0x00 (0000ms, 34174ms total)
T0C08 034:774 JLINK_WriteReg(XPSR, 0x01000000)  returns 0x00 (0000ms, 34174ms total)
T0C08 034:774 JLINK_WriteReg(MSP, 0x20000800)  returns 0x00 (0000ms, 34174ms total)
T0C08 034:774 JLINK_WriteReg(PSP, 0x20000800)  returns 0x00 (0000ms, 34174ms total)
T0C08 034:774 JLINK_WriteReg(CFBP, 0x00000000)  returns 0x00 (0000ms, 34174ms total)
T0C08 034:774 JLINK_SetBPEx(Addr = 0x20000000, Type = 0xFFFFFFF2)  returns 0x00000012 (0000ms, 34174ms total)
T0C08 034:774 JLINK_Go() >0x1F0 JTAG> >0x1F0 JTAG> >0x1F0 JTAG> >0x1F0 JTAG> >0x1F0 JTAG> >0x1F0 JTAG> >0x310 JTAG> >0x218 JTAG> >0x218 JTAG> >0x218 JTAG> >0x218 JTAG> >0x240 JTAG> >0x240 JTAG> (0015ms, 34174ms total)
T0C08 034:789 JLINK_IsHalted() >0x198 JTAG> >0x17A8 JTAG> >0x1F0 JTAG>  returns TRUE (0008ms, 34189ms total)
T0C08 034:798 JLINK_ReadReg(R15)  returns 0x20000000 (0000ms, 34189ms total)
T0C08 034:798 JLINK_ClrBPEx(BPHandle = 0x00000012)  returns 0x00 (0000ms, 34189ms total)
T0C08 034:798 JLINK_ReadReg(R0)  returns 0x00000001 (0000ms, 34189ms total)
T0C08 034:798 JLINK_WriteReg(R0, 0x08002000)  returns 0x00 (0000ms, 34189ms total)
T0C08 034:798 JLINK_WriteReg(R1, 0x00000400)  returns 0x00 (0000ms, 34189ms total)
T0C08 034:798 JLINK_WriteReg(R2, 0x000000FF)  returns 0x00 (0000ms, 34189ms total)
T0C08 034:798 JLINK_WriteReg(R3, 0x00000000)  returns 0x00 (0000ms, 34189ms total)
T0C08 034:798 JLINK_WriteReg(R4, 0x00000000)  returns 0x00 (0000ms, 34189ms total)
T0C08 034:798 JLINK_WriteReg(R5, 0x00000000)  returns 0x00 (0000ms, 34189ms total)
T0C08 034:798 JLINK_WriteReg(R6, 0x00000000)  returns 0x00 (0000ms, 34189ms total)
T0C08 034:798 JLINK_WriteReg(R7, 0x00000000)  returns 0x00 (0000ms, 34189ms total)
